,s11a,s11m,s31a,s31m,s41a,s41m,s21a,s21m,s22m,s22a,s33m,s33a,s44m,s44a,s12m,s12a,s34m,s34a,s43m,s43a,s13m,s13a,s24m,s24a,s42m,s42a,s14m,s14a,s23m,s23a,s32m,s32a,wavelengths,freqs
0,1.1117159698457091,0.036909319160681152,-1.5352535885249743,0.39359579585854948,-2.6367726783145273,0.02528408471592972,-2.638232066789501,0.032772710306439544,0.036909319160681152,1.1117159698457091,0.036909319160681152,1.1117159698457091,0.036909319160681152,1.1117159698457091,0.032772710306439544,-2.638232066789501,0.032772710306439544,-2.638232066789501,0.032772710306439544,-2.638232066789501,0.39359579585854948,-1.5352535885249743,0.39359579585854948,-1.5352535885249743,0.39359579585854948,-1.5352535885249743,0.02528408471592972,-2.6367726783145273,0.02528408471592972,-2.6367726783145273,0.02528408471592972,-2.6367726783145273,1.5,0.66666666666666663
1,0.38192054683558097,0.0308113902896941,-1.7035725600429792,0.38840150930732142,-2.8591911832876016,0.0249073656725926,-2.8604536367704236,0.032238564171924396,0.0308113902896941,0.38192054683558097,0.0308113902896941,0.38192054683558097,0.0308113902896941,0.38192054683558097,0.032238564171924396,-2.8604536367704236,0.032238564171924396,-2.8604536367704236,0.032238564171924396,-2.8604536367704236,0.38840150930732142,-1.7035725600429792,0.38840150930732142,-1.7035725600429792,0.38840150930732142,-1.7035725600429792,0.0249073656725926,-2.8591911832876016,0.0249073656725926,-2.8591911832876016,0.0249073656725926,-2.8591911832876016,1.5020408163265306,0.66576086956521741
2,-0.40948834468956974,0.035453095620255684,-1.8681494678547566,0.38278388985404277,-3.0747893496188494,0.024445462138262548,-3.0756759330996122,0.031600042595885079,0.035453095620255684,-0.40948834468956974,0.035453095620255684,-0.40948834468956974,0.035453095620255684,-0.40948834468956974,0.031600042595885079,-3.0756759330996122,0.031600042595885079,-3.0756759330996122,0.031600042595885079,-3.0756759330996122,0.38278388985404277,-1.8681494678547566,0.38278388985404277,-1.8681494678547566,0.38278388985404277,-1.8681494678547566,0.024445462138262548,-3.0747893496188494,0.024445462138262548,-3.0747893496188494,0.024445462138262548,-3.0747893496188494,1.5040816326530613,0.66485753052917229
3,-0.98690138904699576,0.048727038059736945,-2.0287674770424378,0.37713698924505279,-3.2826872926966351,0.023945584114348984,-3.2830807249438489,0.030920102110026316,0.048727038059736945,-0.98690138904699576,0.048727038059736945,-0.98690138904699576,0.048727038059736945,-0.98690138904699576,0.030920102110026316,-3.2830807249438489,0.030920102110026316,-3.2830807249438489,0.030920102110026316,-3.2830807249438489,0.37713698924505279,-2.0287674770424378,0.37713698924505279,-2.0287674770424378,0.37713698924505279,-2.0287674770424378,0.023945584114348984,-3.2826872926966351,0.023945584114348984,-3.2826872926966351,0.023945584114348984,-3.2826872926966351,1.5061224489795919,0.66395663956639561
4,-1.3951795878432358,0.065640208966799424,-2.1855546159034684,0.37184842304326143,-3.4825652219434451,0.023463507375692604,-3.4824323569120152,0.030271498998840546,0.065640208966799424,-1.3951795878432358,0.065640208966799424,-1.3951795878432358,0.065640208966799424,-1.3951795878432358,0.030271498998840546,-3.4824323569120152,0.030271498998840546,-3.4824323569120152,0.030271498998840546,-3.4824323569120152,0.37184842304326143,-2.1855546159034684,0.37184842304326143,-2.1855546159034684,0.37184842304326143,-2.1855546159034684,0.023463507375692604,-3.4825652219434451,0.023463507375692604,-3.4825652219434451,0.023463507375692604,-3.4825652219434451,1.5081632653061225,0.66305818673883621
5,-1.7209423277567384,0.083500116095893334,-2.3389930483876147,0.3672495065749512,-3.6749404402260946,0.02305736572189759,-3.6743449826586936,0.02972858412805739,0.083500116095893334,-1.7209423277567384,0.083500116095893334,-1.7209423277567384,0.083500116095893334,-1.7209423277567384,0.02972858412805739,-3.6743449826586936,0.02972858412805739,-3.6743449826586936,0.02972858412805739,-3.6743449826586936,0.3672495065749512,-2.3389930483876147,0.3672495065749512,-2.3389930483876147,0.3672495065749512,-2.3389930483876147,0.02305736572189759,-3.6749404402260946,0.02305736572189759,-3.6749404402260946,0.02305736572189759,-3.6749404402260946,1.510204081632653,0.66216216216216217
6,-2.0062970349578286,0.10092550250555653,-2.4898641437390023,0.36357187414752756,-3.8613475874175029,0.022779455478525591,-3.8604434018748255,0.029356775138497052,0.10092550250555653,-2.0062970349578286,0.10092550250555653,-2.0062970349578286,0.10092550250555653,-2.0062970349578286,0.029356775138497052,-3.8604434018748255,0.029356775138497052,-3.8604434018748255,0.029356775138497052,-3.8604434018748255,0.36357187414752756,-2.4898641437390023,0.36357187414752756,-2.4898641437390023,0.36357187414752756,-2.4898641437390023,0.022779455478525591,-3.8613475874175029,0.022779455478525591,-3.8613475874175029,0.022779455478525591,-3.8613475874175029,1.5122448979591836,0.66126855600539813
7,-2.2703922729025203,0.11703836117740009,-2.6391313294314633,0.36092008718343505,-4.0442958070086767,0.022667563927367289,-4.043294950257355,0.0292017469798053,0.11703836117740009,-2.2703922729025203,0.11703836117740009,-2.2703922729025203,0.11703836117740009,-2.2703922729025203,0.0292017469798053,-4.043294950257355,0.0292017469798053,-4.043294950257355,0.0292017469798053,-4.043294950257355,0.36092008718343505,-2.6391313294314633,0.36092008718343505,-2.6391313294314633,0.36092008718343505,-2.6391313294314633,0.022667563927367289,-4.0442958070086767,0.022667563927367289,-4.0442958070086767,0.022667563927367289,-4.0442958070086767,1.5142857142857142,0.66037735849056611
8,-2.5227523455748146,0.13120994736410513,-2.7877852553516509,0.35926637711094828,-4.2269344046122885,0.022738177076482371,-4.2260556905680868,0.029281354743689699,0.13120994736410513,-2.5227523455748146,0.13120994736410513,-2.5227523455748146,0.13120994736410513,-2.5227523455748146,0.029281354743689699,-4.2260556905680868,0.029281354743689699,-4.2260556905680868,0.029281354743689699,-4.2260556905680868,0.35926637711094828,-2.7877852553516509,0.35926637711094828,-2.7877852553516509,0.35926637711094828,-2.7877852553516509,0.022738177076482371,-4.2269344046122885,0.022738177076482371,-4.2269344046122885,0.022738177076482371,-4.2269344046122885,1.5163265306122449,0.65948855989232846
9,-2.7686975859971454,0.14298750392335388,-2.9366905965960322,0.35846776297430977,-4.4125020028961295,0.022983796810176191,-4.4119185057934587,0.02958296736257782,0.14298750392335388,-2.7686975859971454,0.14298750392335388,-2.7686975859971454,0.14298750392335388,-2.7686975859971454,0.02958296736257782,-4.4119185057934587,0.02958296736257782,-4.4119185057934587,0.02958296736257782,-4.4119185057934587,0.35846776297430977,-2.9366905965960322,0.35846776297430977,-2.9366905965960322,0.35846776297430977,-2.9366905965960322,0.022983796810176191,-4.4125020028961295,0.022983796810176191,-4.4125020028961295,0.022983796810176191,-4.4125020028961295,1.5183673469387755,0.65860215053763438
10,-3.0116171850000906,0.1520720673470686,-3.0864717107868342,0.35829990269295509,-4.6037661385166082,0.023375159122774783,-4.6035719535071564,0.030066944176735305,0.1520720673470686,-3.0116171850000906,0.1520720673470686,-3.0116171850000906,0.1520720673470686,-3.0116171850000906,0.030066944176735305,-4.6035719535071564,0.030066944176735305,-4.6035719535071564,0.030066944176735305,-4.6035719535071564,0.35829990269295509,-3.0864717107868342,0.35829990269295509,-3.0864717107868342,0.35829990269295509,-3.0864717107868342,0.023375159122774783,-4.6037661385166082,0.023375159122774783,-4.6037661385166082,0.023375159122774783,-4.6037661385166082,1.5204081632653061,0.65771812080536907
11,-3.254010271722144,0.15830926394885431,-3.2374572368399508,0.35849877262967622,-4.8026614942865979,0.023867179669638687,-4.802866542668542,0.030674545494418046,0.15830926394885431,-3.254010271722144,0.15830926394885431,-3.254010271722144,0.15830926394885431,-3.254010271722144,0.030674545494418046,-4.802866542668542,0.030674545494418046,-4.802866542668542,0.030674545494418046,-4.802866542668542,0.35849877262967622,-3.2374572368399508,0.35849877262967622,-3.2374572368399508,0.35849877262967622,-3.2374572368399508,0.023867179669638687,-4.8026614942865979,0.023867179669638687,-4.8026614942865979,0.023867179669638687,-4.8026614942865979,1.5224489795918368,0.65683646112600536
12,-3.4980097248602098,0.16168261620456262,-3.3896826618488811,0.35880150384528553,-5.0102052038928342,0.024406300714492166,-5.0107521832222242,0.031337286626006433,0.16168261620456262,-3.4980097248602098,0.16168261620456262,-3.4980097248602098,0.16168261620456262,-3.4980097248602098,0.031337286626006433,-5.0107521832222242,0.031337286626006433,-5.0107521832222242,0.031337286626006433,-5.0107521832222242,0.35880150384528553,-3.3896826618488811,0.35880150384528553,-3.3896826618488811,0.35880150384528553,-3.3896826618488811,0.024406300714492166,-5.0102052038928342,0.024406300714492166,-5.0102052038928342,0.024406300714492166,-5.0102052038928342,1.5244897959183674,0.65595716198125831
13,-3.7456712053236183,0.16230762515626565,-3.5429357796869345,0.35898033419819392,-5.2266255296495858,0.024937146557018793,-5.227416236309999,0.031985190586816648,0.16230762515626565,-3.7456712053236183,0.16230762515626565,-3.7456712053236183,0.16230762515626565,-3.7456712053236183,0.031985190586816648,-5.227416236309999,0.031985190586816648,-5.227416236309999,0.031985190586816648,-5.227416236309999,0.35898033419819392,-3.5429357796869345,0.35898033419819392,-3.5429357796869345,0.35898033419819392,-3.5429357796869345,0.024937146557018793,-5.2266255296495858,0.024937146557018793,-5.2266255296495858,0.024937146557018793,-5.2266255296495858,1.5265306122448981,0.65508021390374327
14,-3.9991441562796903,0.16042739388975835,-3.6968264461109199,0.35886675110285648,-5.4515824029280111,0.025407446088228612,-5.4525027501412913,0.032552762939371573,0.16042739388975835,-3.9991441562796903,0.16042739388975835,-3.9991441562796903,0.16042739388975835,-3.9991441562796903,0.032552762939371573,-5.4525027501412913,0.032552762939371573,-5.4525027501412913,0.032552762939371573,-5.4525027501412913,0.35886675110285648,-3.6968264461109199,0.35886675110285648,-3.6968264461109199,0.35886675110285648,-3.6968264461109199,0.025407446088228612,-5.4515824029280111,0.025407446088228612,-5.4515824029280111,0.025407446088228612,-5.4515824029280111,1.5285714285714287,0.65420560747663548
15,-4.2607657628501991,0.15641056310259294,-3.8508658706565813,0.35836510856769571,-5.6843820910028073,0.025771172961761412,-5.685320736403165,0.032982723548306475,0.15641056310259294,-4.2607657628501991,0.15641056310259294,-4.2607657628501991,0.15641056310259294,-4.2607657628501991,0.032982723548306475,-5.685320736403165,0.032982723548306475,-5.685320736403165,0.032982723548306475,-5.685320736403165,0.35836510856769571,-3.8508658706565813,0.35836510856769571,-3.8508658706565813,0.35836510856769571,-3.8508658706565813,0.025771172961761412,-5.6843820910028073,0.025771172961761412,-5.6843820910028073,0.025771172961761412,-5.6843820910028073,1.5306122448979591,0.65333333333333332
16,-4.5330689643322009,0.1507510002756336,-4.0045464062696361,0.35745595974006061,-5.9241397877738251,0.025990354066625015,-5.9249997579659199,0.033228105088084034,0.1507510002756336,-4.5330689643322009,0.1507510002756336,-4.5330689643322009,0.1507510002756336,-4.5330689643322009,0.033228105088084034,-5.9249997579659199,0.033228105088084034,-5.9249997579659199,0.033228105088084034,-5.9249997579659199,0.35745595974006061,-4.0045464062696361,0.35745595974006061,-4.0045464062696361,0.35745595974006061,-4.0045464062696361,0.025990354066625015,-5.9241397877738251,0.025990354066625015,-5.9241397877738251,0.025990354066625015,-5.9241397877738251,1.5326530612244897,0.65246338215712385
17,-4.8186454144481186,0.14406606179886652,-4.1574164319159133,0.35618951248610781,-6.1698838351166732,0.026036054604308582,-6.1705886366307707,0.033253364266088943,0.14406606179886652,-4.8186454144481186,0.14406606179886652,-4.8186454144481186,0.14406606179886652,-4.8186454144481186,0.033253364266088943,-6.1705886366307707,0.033253364266088943,-6.1705886366307707,0.033253364266088943,-6.1705886366307707,0.35618951248610781,-4.1574164319159133,0.35618951248610781,-4.1574164319159133,0.35618951248610781,-4.1574164319159133,0.026036054604308582,-6.1698838351166732,0.026036054604308582,-6.1698838351166732,0.026036054604308582,-6.1698838351166732,1.5346938775510204,0.65159574468085113
18,-5.1197514702473468,0.13708574152500486,-4.3091451641148133,0.35466974538595608,-6.4206141293593673,0.025888885478057035,-6.4211102372420985,0.033034932148876171,0.13708574152500486,-5.1197514702473468,0.13708574152500486,-5.1197514702473468,0.13708574152500486,-5.1197514702473468,0.033034932148876171,-6.4211102372420985,0.033034932148876171,-6.4211102372420985,0.033034932148876171,-6.4211102372420985,0.35466974538595608,-4.3091451641148133,0.35466974538595608,-4.3091451641148133,0.35466974538595608,-4.3091451641148133,0.025888885478057035,-6.4206141293593673,0.025888885478057035,-6.4206141293593673,0.025888885478057035,-6.4206141293593673,1.536734693877551,0.65073041168658696
19,-5.4375323979434578,0.13061848631338652,-4.4595700607281792,0.35303042921082645,-6.6753311545502729,0.025539178223659028,-6.675588416455378,0.032561375532985028,0.13061848631338652,-5.4375323979434578,0.13061848631338652,-5.4375323979434578,0.13061848631338652,-5.4375323979434578,0.032561375532985028,-6.675588416455378,0.032561375532985028,-6.675588416455378,0.032561375532985028,-6.675588416455378,0.35303042921082645,-4.4595700607281792,0.35303042921082645,-4.4595700607281792,0.35303042921082645,-4.4595700607281792,0.025539178223659028,-6.6753311545502729,0.025539178223659028,-6.6753311545502729,0.025539178223659028,-6.6753311545502729,1.5387755102040817,0.64986737400530503
20,-5.7708886829102042,0.12547447186482405,-4.6087173829945431,0.35140576844278765,-6.9330490596178649,0.024986827797167054,-6.9330600343431907,0.031833161716689498,0.12547447186482405,-5.7708886829102042,0.12547447186482405,-5.7708886829102042,0.12547447186482405,-5.7708886829102042,0.031833161716689498,-6.9330600343431907,0.031833161716689498,-6.9330600343431907,0.031833161716689498,-6.9330600343431907,0.35140576844278765,-4.6087173829945431,0.35140576844278765,-4.6087173829945431,0.35140576844278765,-4.6087173829945431,0.024986827797167054,-6.9330490596178649,0.024986827797167054,-6.9330490596178649,0.024986827797167054,-6.9330490596178649,1.5408163265306123,0.64900662251655628
21,-6.1154489427081185,0.12233557758403119,-4.7567874198377345,0.34990021951664324,-7.1928013962074742,0.02424074237335239,-7.1925802018392258,0.030861945496163518,0.12233557758403119,-6.1154489427081185,0.12233557758403119,-6.1154489427081185,0.12233557758403119,-6.1154489427081185,0.030861945496163518,-7.1925802018392258,0.030861945496163518,-7.1925802018392258,0.030861945496163518,-7.1925802018392258,0.34990021951664324,-4.7567874198377345,0.34990021951664324,-4.7567874198377345,0.34990021951664324,-4.7567874198377345,0.02424074237335239,-7.1928013962074742,0.02424074237335239,-7.1928013962074742,0.02424074237335239,-7.1928013962074742,1.5428571428571429,0.64814814814814814
22,-6.4636158775915558,0.12159755844390624,-4.904101715077041,0.34856337943910504,-7.453643868002839,0.023317853705147613,-7.4532247961129148,0.029669317709230987,0.12159755844390624,-6.4636158775915558,0.12159755844390624,-6.4636158775915558,0.12159755844390624,-6.4636158775915558,0.029669317709230987,-7.4532247961129148,0.029669317709230987,-7.4532247961129148,0.029669317709230987,-7.4532247961129148,0.34856337943910504,-4.904101715077041,0.34856337943910504,-4.904101715077041,0.34856337943910504,-4.904101715077041,0.023317853705147613,-7.453643868002839,0.023317853705147613,-7.453643868002839,0.023317853705147613,-7.453643868002839,1.5448979591836736,0.64729194187582562
23,-6.8063522445451161,0.1232589859478152,-5.0510194517811566,0.34737570823850378,-7.7146554115280939,0.022241705011854445,-7.7140913472161365,0.028285035454165004,0.1232589859478152,-6.8063522445451161,0.1232589859478152,-6.8063522445451161,0.1232589859478152,-6.8063522445451161,0.028285035454165004,-7.7140913472161365,0.028285035454165004,-7.7140913472161365,0.028285035454165004,-7.7140913472161365,0.34737570823850378,-5.0510194517811566,0.34737570823850378,-5.0510194517811566,0.34737570823850378,-5.0510194517811566,0.022241705011854445,-7.7146554115280939,0.022241705011854445,-7.7146554115280939,0.022241705011854445,-7.7146554115280939,1.5469387755102042,0.64643799472295504
24,-7.135915764956037,0.12693147514707268,-5.1978398775192085,0.34624882278292113,-7.9749371327047909,0.02104071257686576,-7.9742976668289316,0.026744853683831549,0.12693147514707268,-7.135915764956037,0.12693147514707268,-7.135915764956037,0.12693147514707268,-7.135915764956037,0.026744853683831549,-7.9742976668289316,0.026744853683831549,-7.9742976668289316,0.026744853683831549,-7.9742976668289316,0.34624882278292113,-5.1978398775192085,0.34624882278292113,-5.1978398775192085,0.34624882278292113,-5.1978398775192085,0.02104071257686576,-7.9749371327047909,0.02104071257686576,-7.9749371327047909,0.02104071257686576,-7.9749371327047909,1.5489795918367348,0.6455862977602107
25,-7.4477442102379694,0.1319675831321141,-5.3447122387018968,0.34504070960951233,-8.2336078272022384,0.01974626207653507,-8.232976822052656,0.025088158793153712,0.1319675831321141,-7.4477442102379694,0.1319675831321141,-7.4477442102379694,0.1319675831321141,-7.4477442102379694,0.025088158793153712,-8.232976822052656,0.025088158793153712,-8.232976822052656,0.025088158793153712,-8.232976822052656,0.34504070960951233,-5.3447122387018968,0.34504070960951233,-5.3447122387018968,0.34504070960951233,-5.3447122387018968,0.01974626207653507,-8.2336078272022384,0.01974626207653507,-8.2336078272022384,0.01974626207653507,-8.2336078272022384,1.5510204081632653,0.64473684210526316
26,-7.7405959470044063,0.13762640739291174,-5.4915716379900381,0.34358276017278422,-8.4897947587547051,0.018390831696920809,-8.4892670050661252,0.023355643179068953,0.13762640739291174,-7.7405959470044063,0.13762640739291174,-7.7405959470044063,0.13762640739291174,-7.7405959470044063,0.023355643179068953,-8.4892670050661252,0.023355643179068953,-8.4892670050661252,0.023355643179068953,-8.4892670050661252,0.34358276017278422,-5.4915716379900381,0.34358276017278422,-5.4915716379900381,0.34358276017278422,-5.4915716379900381,0.018390831696920809,-8.4897947587547051,0.018390831696920809,-8.4897947587547051,0.018390831696920809,-8.4897947587547051,1.5530612244897959,0.64388961892247043
27,-8.0155483209053244,0.14320117241958938,-5.6381105620406737,0.34171335837749806,-8.7426188978676151,0.017006325879049496,-8.7422953610667662,0.021587249130415868,0.14320117241958938,-8.0155483209053244,0.14320117241958938,-8.0155483209053244,0.14320117241958938,-8.0155483209053244,0.021587249130415868,-8.7422953610667662,0.021587249130415868,-8.7422953610667662,0.021587249130415868,-8.7422953610667662,0.34171335837749806,-5.6381105620406737,0.34171335837749806,-5.6381105620406737,0.34171335837749806,-5.6381105620406737,0.017006325879049496,-8.7426188978676151,0.017006325879049496,-8.7426188978676151,0.017006325879049496,-8.7426188978676151,1.5551020408163265,0.64304461942257218
