,s11a,s11m,s31a,s31m,s41a,s41m,s21a,s21m,s22m,s22a,s33m,s33a,s44m,s44a,s12m,s12a,s34m,s34a,s43m,s43a,s13m,s13a,s24m,s24a,s42m,s42a,s14m,s14a,s23m,s23a,s32m,s32a,wavelengths,freqs
0,1.1048955367609221,0.036718366185694309,-1.5367513843261533,0.38994648752018257,-2.6021189222503778,0.024869048470012433,-2.602166356007003,0.032238672133750292,0.036718366185694309,1.1048955367609221,0.036718366185694309,1.1048955367609221,0.036718366185694309,1.1048955367609221,0.032238672133750292,-2.602166356007003,0.032238672133750292,-2.602166356007003,0.032238672133750292,-2.602166356007003,0.38994648752018257,-1.5367513843261533,0.38994648752018257,-1.5367513843261533,0.38994648752018257,-1.5367513843261533,0.024869048470012433,-2.6021189222503778,0.024869048470012433,-2.6021189222503778,0.024869048470012433,-2.6021189222503778,1.5,0.66666666666666663
1,0.36566122193231243,0.03061145004324364,-1.7002576401949887,0.38498287147955357,-2.8180777716655423,0.024963773967261103,-2.8181333176786496,0.032332539255581071,0.03061145004324364,0.36566122193231243,0.03061145004324364,0.36566122193231243,0.03061145004324364,0.36566122193231243,0.032332539255581071,-2.8181333176786496,0.032332539255581071,-2.8181333176786496,0.032332539255581071,-2.8181333176786496,0.38498287147955357,-1.7002576401949887,0.38498287147955357,-1.7002576401949887,0.38498287147955357,-1.7002576401949887,0.024963773967261103,-2.8180777716655423,0.024963773967261103,-2.8180777716655423,0.024963773967261103,-2.8180777716655423,1.5020408163265306,0.66576086956521741
2,-0.43073531746051563,0.03529125248862993,-1.8608076814945198,0.38047856465392693,-3.0376305033579141,0.025028962539291762,-3.0376952756168283,0.032388261925599161,0.03529125248862993,-0.43073531746051563,0.03529125248862993,-0.43073531746051563,0.03529125248862993,-0.43073531746051563,0.032388261925599161,-3.0376952756168283,0.032388261925599161,-3.0376952756168283,0.032388261925599161,-3.0376952756168283,0.38047856465392693,-1.8608076814945198,0.38047856465392693,-1.8608076814945198,0.38047856465392693,-1.8608076814945198,0.025028962539291762,-3.0376305033579141,0.025028962539291762,-3.0376305033579141,0.025028962539291762,-3.0376305033579141,1.5040816326530613,0.66485753052917229
3,-1.0064785598116945,0.048423384795593931,-2.0192715422028202,0.37657275214529518,-3.260867854359637,0.024960068949761643,-3.2609454473793593,0.032270742555718518,0.048423384795593931,-1.0064785598116945,0.048423384795593931,-1.0064785598116945,0.048423384795593931,-1.0064785598116945,0.032270742555718518,-3.2609454473793593,0.032270742555718518,-3.2609454473793593,0.032270742555718518,-3.2609454473793593,0.37657275214529518,-2.0192715422028202,0.37657275214529518,-2.0192715422028202,0.37657275214529518,-2.0192715422028202,0.024960068949761643,-3.260867854359637,0.024960068949761643,-3.260867854359637,0.024960068949761643,-3.260867854359637,1.5061224489795919,0.66395663956639561
4,-1.4107022117930801,0.064949852500400945,-2.1765486980304307,0.37321274328221382,-3.4849390784628578,0.024657595305695727,-3.4850342170709356,0.031851844037054287,0.064949852500400945,-1.4107022117930801,0.064949852500400945,-1.4107022117930801,0.064949852500400945,-1.4107022117930801,0.031851844037054287,-3.4850342170709356,0.031851844037054287,-3.4850342170709356,0.031851844037054287,-3.4850342170709356,0.37321274328221382,-2.1765486980304307,0.37321274328221382,-2.1765486980304307,0.37321274328221382,-2.1765486980304307,0.024657595305695727,-3.4849390784628578,0.024657595305695727,-3.4849390784628578,0.024657595305695727,-3.4849390784628578,1.5081632653061225,0.66305818673883621
5,-1.7306694064189112,0.082291576632327321,-2.3332171266457604,0.37016365864685602,-3.7040957313902383,0.024081324804977492,-3.7042134016827415,0.031080351591377689,0.082291576632327321,-1.7306694064189112,0.082291576632327321,-1.7306694064189112,0.082291576632327321,-1.7306694064189112,0.031080351591377689,-3.7042134016827415,0.031080351591377689,-3.7042134016827415,0.031080351591377689,-3.7042134016827415,0.37016365864685602,-2.3332171266457604,0.37016365864685602,-2.3332171266457604,0.37016365864685602,-2.3332171266457604,0.024081324804977492,-3.7040957313902383,0.024081324804977492,-3.7040957313902383,0.024081324804977492,-3.7040957313902383,1.510204081632653,0.66216216216216217
6,-2.0088948920205585,0.099263478092247587,-2.4892037221150756,0.36712911970198475,-3.9110550964105193,0.023298054256012325,-3.9111978016939828,0.030043208937876202,0.099263478092247587,-2.0088948920205585,0.099263478092247587,-2.0088948920205585,0.099263478092247587,-2.0088948920205585,0.030043208937876202,-3.9111978016939828,0.030043208937876202,-3.9111978016939828,0.030043208937876202,-3.9111978016939828,0.36712911970198475,-2.4892037221150756,0.36712911970198475,-2.4892037221150756,0.36712911970198475,-2.4892037221150756,0.023298054256012325,-3.9110550964105193,0.023298054256012325,-3.9110550964105193,0.023298054256012325,-3.9110550964105193,1.5122448979591836,0.66126855600539813
7,-2.2653270568753561,0.11520744837783102,-2.6437210867027763,0.36396190887214241,-4.0998932171105995,0.022491253086451557,-4.1000582680314492,0.028977451003885605,0.11520744837783102,-2.2653270568753561,0.11520744837783102,-2.2653270568753561,0.11520744837783102,-2.2653270568753561,0.028977451003885605,-4.1000582680314492,0.028977451003885605,-4.1000582680314492,0.028977451003885605,-4.1000582680314492,0.36396190887214241,-2.6437210867027763,0.36396190887214241,-2.6437210867027763,0.36396190887214241,-2.6437210867027763,0.022491253086451557,-4.0998932171105995,0.022491253086451557,-4.0998932171105995,0.022491253086451557,-4.0998932171105995,1.5142857142857142,0.66037735849056611
8,-2.5107429881218457,0.12971262940173733,-2.7958112087152633,0.36087941066406881,-4.2699394655891449,0.021910564439303903,-4.2701176817325264,0.028204570787766659,0.12971262940173733,-2.5107429881218457,0.12971262940173733,-2.5107429881218457,0.12971262940173733,-2.5107429881218457,0.028204570787766659,-4.2701176817325264,0.028204570787766659,-4.2701176817325264,0.028204570787766659,-4.2701176817325264,0.36087941066406881,-2.7958112087152633,0.36087941066406881,-2.7958112087152633,0.36087941066406881,-2.7958112087152633,0.021910564439303903,-4.2699394655891449,0.021910564439303903,-4.2699394655891449,0.021910564439303903,-4.2699394655891449,1.5163265306122449,0.65948855989232846
9,-2.7524984475391858,0.14242013861640626,-2.9454150505627474,0.3583666690786324,-4.4283171008901991,0.021774658234424003,-4.4284942802711571,0.028005241066959133,0.14242013861640626,-2.7524984475391858,0.14242013861640626,-2.7524984475391858,0.14242013861640626,-2.7524984475391858,0.028005241066959133,-4.4284942802711571,0.028005241066959133,-4.4284942802711571,0.028005241066959133,-4.4284942802711571,0.3583666690786324,-2.9454150505627474,0.3583666690786324,-2.9454150505627474,0.3583666690786324,-2.9454150505627474,0.021774658234424003,-4.4283171008901991,0.021774658234424003,-4.4283171008901991,0.021774658234424003,-4.4283171008901991,1.5183673469387755,0.65860215053763438
10,-2.9957270564568845,0.15279517596072972,-3.0935709318662612,0.35673677935433412,-4.5882505272747256,0.022179892284977788,-4.5884144161868399,0.028502058087761992,0.15279517596072972,-2.9957270564568845,0.15279517596072972,-2.9957270564568845,0.15279517596072972,-2.9957270564568845,0.028502058087761992,-4.5884144161868399,0.028502058087761992,-4.5884144161868399,0.028502058087761992,-4.5884144161868399,0.35673677935433412,-3.0935709318662612,0.35673677935433412,-3.0935709318662612,0.35673677935433412,-3.0935709318662612,0.022179892284977788,-4.5882505272747256,0.022179892284977788,-4.5882505272747256,0.022179892284977788,-4.5882505272747256,1.5204081632653061,0.65771812080536907
11,-3.2427733635950791,0.16020066200292155,-3.241393723309717,0.35596837141560445,-4.7633181109541365,0.023061079557848849,-4.7634640959275227,0.029609707033457628,0.16020066200292155,-3.2427733635950791,0.16020066200292155,-3.2427733635950791,0.16020066200292155,-3.2427733635950791,0.029609707033457628,-4.7634640959275227,0.029609707033457628,-4.7634640959275227,0.029609707033457628,-4.7634640959275227,0.35596837141560445,-3.241393723309717,0.35596837141560445,-3.241393723309717,0.35596837141560445,-3.241393723309717,0.023061079557848849,-4.7633181109541365,0.023061079557848849,-4.7633181109541365,0.023061079557848849,-4.7633181109541365,1.5224489795918368,0.65683646112600536
12,-3.4940106062518153,0.16422823009855694,-3.3895907389577449,0.35594938936965947,-4.9617791791307111,0.024215567856999201,-4.9619102173132914,0.03106670299107861,0.16422823009855694,-3.4940106062518153,0.16422823009855694,-3.4940106062518153,0.16422823009855694,-3.4940106062518153,0.03106670299107861,-4.9619102173132914,0.03106670299107861,-4.9619102173132914,0.03106670299107861,-4.9619102173132914,0.35594938936965947,-3.3895907389577449,0.35594938936965947,-3.3895907389577449,0.35594938936965947,-3.3895907389577449,0.024215567856999201,-4.9617791791307111,0.024215567856999201,-4.9617791791307111,0.024215567856999201,-4.9617791791307111,1.5244897959183674,0.65595716198125831
13,-3.749492872830499,0.16485067391571395,-3.5388725099805725,0.3565666397197173,-5.1846345083043444,0.025369785329824521,-5.184757804856992,0.032521426003066442,0.16485067391571395,-3.749492872830499,0.16485067391571395,-3.749492872830499,0.16485067391571395,-3.749492872830499,0.032521426003066442,-5.184757804856992,0.032521426003066442,-5.184757804856992,0.032521426003066442,-5.184757804856992,0.3565666397197173,-3.5388725099805725,0.3565666397197173,-3.5388725099805725,0.3565666397197173,-3.5388725099805725,0.025369785329824521,-5.1846345083043444,0.025369785329824521,-5.1846345083043444,0.025369785329824521,-5.1846345083043444,1.5265306122448981,0.65508021390374327
14,-4.0096809374732025,0.1623703907486978,-3.6900096147684756,0.357565681122822,-5.4269547807633938,0.026262391881215714,-5.427077737716961,0.033639030250834,0.1623703907486978,-4.0096809374732025,0.1623703907486978,-4.0096809374732025,0.1623703907486978,-4.0096809374732025,0.033639030250834,-5.427077737716961,0.033639030250834,-5.427077737716961,0.033639030250834,-5.427077737716961,0.357565681122822,-3.6900096147684756,0.357565681122822,-3.6900096147684756,0.357565681122822,-3.6900096147684756,0.026262391881215714,-5.4269547807633938,0.026262391881215714,-5.4269547807633938,0.026262391881215714,-5.4269547807633938,1.5285714285714287,0.65420560747663548
15,-4.2756113717399131,0.15736631289331024,-3.8433728546188584,0.35850734097654458,-5.6805285019845337,0.026728709296307714,-5.6806569994058131,0.034209476852236173,0.15736631289331024,-4.2756113717399131,0.15736631289331024,-4.2756113717399131,0.15736631289331024,-4.2756113717399131,0.034209476852236173,-5.6806569994058131,0.034209476852236173,-5.6806569994058131,0.034209476852236173,-5.6806569994058131,0.35850734097654458,-3.8433728546188584,0.35850734097654458,-3.8433728546188584,0.35850734097654458,-3.8433728546188584,0.026728709296307714,-5.6805285019845337,0.026728709296307714,-5.6805285019845337,0.026728709296307714,-5.6805285019845337,1.5306122448979591,0.65333333333333332
16,-4.5491697406735838,0.15062122662059463,-3.9985604374941217,0.35890195334335434,-5.9370005528827274,0.026753753657790123,-5.9371387462688157,0.03421484038696801,0.15062122662059463,-4.5491697406735838,0.15062122662059463,-4.5491697406735838,0.15062122662059463,-4.5491697406735838,0.03421484038696801,-5.9371387462688157,0.03421484038696801,-5.9371387462688157,0.03421484038696801,-5.9371387462688157,0.35890195334335434,-3.9985604374941217,0.35890195334335434,-3.9985604374941217,0.35890195334335434,-3.9985604374941217,0.026753753657790123,-5.9370005528827274,0.026753753657790123,-5.9370005528827274,0.026753753657790123,-5.9370005528827274,1.5326530612244897,0.65246338215712385
17,-4.8330759206580574,0.1430063037527578,-4.1544602366507464,0.35841853713563859,-6.1908420583779034,0.026452871272300737,-6.1909922628530492,0.033803816035301075,0.1430063037527578,-4.8330759206580574,0.1430063037527578,-4.8330759206580574,0.1430063037527578,-4.8330759206580574,0.033803816035301075,-6.1909922628530492,0.033803816035301075,-6.1909922628530492,0.033803816035301075,-6.1909922628530492,0.35841853713563859,-4.1544602366507464,0.35841853713563859,-4.1544602366507464,0.35841853713563859,-4.1544602366507464,0.026452871272300737,-6.1908420583779034,0.026452871272300737,-6.1908420583779034,0.026452871272300737,-6.1908420583779034,1.5346938775510204,0.65159574468085113
18,-5.1302851317694893,0.13539581811964371,-4.3097187373072368,0.35700415852713341,-6.4409848993598562,0.025984815579076278,-6.4411482937823807,0.033180079645119112,0.13539581811964371,-5.1302851317694893,0.13539581811964371,-5.1302851317694893,0.13539581811964371,-5.1302851317694893,0.033180079645119112,-6.4411482937823807,0.033180079645119112,-6.4411482937823807,0.033180079645119112,-6.4411482937823807,0.35700415852713341,-4.3097187373072368,0.35700415852713341,-4.3097187373072368,0.35700415852713341,-4.3097187373072368,0.025984815579076278,-6.4409848993598562,0.025984815579076278,-6.4409848993598562,0.025984815579076278,-6.4409848993598562,1.536734693877551,0.65073041168658696
19,-5.4428829209216634,0.1286291202949508,-4.4631907157038544,0.35484517128115511,-6.6901782637025002,0.025455266498925069,-6.6903553839322081,0.032478947357295951,0.1286291202949508,-5.4428829209216634,0.1286291202949508,-5.4428829209216634,0.1286291202949508,-5.4428829209216634,0.032478947357295951,-6.6903553839322081,0.032478947357295951,-6.6903553839322081,0.032478947357295951,-6.6903553839322081,0.35484517128115511,-4.4631907157038544,0.35484517128115511,-4.4631907157038544,0.35484517128115511,-4.4631907157038544,0.025455266498925069,-6.6901782637025002,0.025455266498925069,-6.6901782637025002,0.025455266498925069,-6.6901782637025002,1.5387755102040817,0.64986737400530503
20,-5.7707034579071523,0.12347829443234727,-4.6141478963190288,0.35227668020631248,-6.94238592474467,0.024871972038206999,-6.9425766353220641,0.031710460732768446,0.12347829443234727,-5.7707034579071523,0.12347829443234727,-5.7707034579071523,0.12347829443234727,-5.7707034579071523,0.031710460732768446,-6.9425766353220641,0.031710460732768446,-6.9425766353220641,0.031710460732768446,-6.9425766353220641,0.35227668020631248,-4.6141478963190288,0.35227668020631248,-4.6141478963190288,0.35227668020631248,-4.6141478963190288,0.024871972038206999,-6.94238592474467,0.024871972038206999,-6.94238592474467,0.024871972038206999,-6.94238592474467,1.5408163265306123,0.64900662251655628
21,-6.1102482662078854,0.12056393613874669,-4.7624013934097409,0.34969918144611362,-7.1999363624375761,0.024168914312892021,-7.2001401954679558,0.030790651121543659,0.12056393613874669,-6.1102482662078854,0.12056393613874669,-6.1102482662078854,0.12056393613874669,-6.1102482662078854,0.030790651121543659,-7.2001401954679558,0.030790651121543659,-7.2001401954679558,0.030790651121543659,-7.2001401954679558,0.34969918144611362,-4.7624013934097409,0.34969918144611362,-4.7624013934097409,0.34969918144611362,-4.7624013934097409,0.024168914312892021,-7.1999363624375761,0.024168914312892021,-7.1999363624375761,0.024168914312892021,-7.1999363624375761,1.5428571428571429,0.64814814814814814
22,-6.4546780397012817,0.12021343143738679,-4.908371345212112,0.34747572461115617,-7.4621623564321542,0.023270384047715358,-7.4623782797222349,0.029623455276655258,0.12021343143738679,-6.4546780397012817,0.12021343143738679,-6.4546780397012817,0.12021343143738679,-6.4546780397012817,0.029623455276655258,-7.4623782797222349,0.029623455276655258,-7.4623782797222349,0.029623455276655258,-7.4623782797222349,0.34747572461115617,-4.908371345212112,0.34747572461115617,-4.908371345212112,0.34747572461115617,-4.908371345212112,0.023270384047715358,-7.4621623564321542,0.023270384047715358,-7.4621623564321542,0.023270384047715358,-7.4621623564321542,1.5448979591836736,0.64729194187582562
23,-6.7954041688025146,0.12235265144190464,-5.0529853412438559,0.34581541510748898,-7.7259942995505577,0.022148265756165967,-7.7262204145670683,0.02817365348695355,0.12235265144190464,-6.7954041688025146,0.12235265144190464,-6.7954041688025146,0.12235265144190464,-6.7954041688025146,0.02817365348695355,-7.7262204145670683,0.02817365348695355,-7.7262204145670683,0.02817365348695355,-7.7262204145670683,0.34581541510748898,-5.0529853412438559,0.34581541510748898,-5.0529853412438559,0.34581541510748898,-5.0529853412438559,0.022148265756165967,-7.7259942995505577,0.022148265756165967,-7.7259942995505577,0.022148265756165967,-7.7259942995505577,1.5469387755102042,0.64643799472295504
24,-7.1246931988534561,0.12652028031425175,-5.1973413312597954,0.34469653017981455,-7.9876711360508406,0.020838455011000481,-7.9879050167082726,0.026487499421691155,0.12652028031425175,-7.1246931988534561,0.12652028031425175,-7.1246931988534561,0.12652028031425175,-7.1246931988534561,0.026487499421691155,-7.9879050167082726,0.026487499421691155,-7.9879050167082726,0.026487499421691155,-7.9879050167082726,0.34469653017981455,-5.1973413312597954,0.34469653017981455,-5.1973413312597954,0.34469653017981455,-5.1973413312597954,0.020838455011000481,-7.9876711360508406,0.020838455011000481,-7.9876711360508406,0.020838455011000481,-7.9876711360508406,1.5489795918367348,0.6455862977602107
25,-7.4376019095707697,0.13200160320849744,-5.3422821362737878,0.34388886642408734,-8.2442437961967059,0.019417180748953003,-8.2444823671951859,0.024662332170135168,0.13200160320849744,-7.4376019095707697,0.13200160320849744,-7.4376019095707697,0.13200160320849744,-7.4376019095707697,0.024662332170135168,-8.2444823671951859,0.024662332170135168,-8.2444823671951859,0.024662332170135168,-8.2444823671951859,0.34388886642408734,-5.3422821362737878,0.34388886642408734,-5.3422821362737878,0.34388886642408734,-5.3422821362737878,0.019417180748953003,-8.2442437961967059,0.019417180748953003,-8.2442437961967059,0.019417180748953003,-8.2442437961967059,1.5510204081632653,0.64473684210526316
26,-7.7322927151872722,0.13800785879752356,-5.4881489012048625,0.34305121178097703,-8.4941550883935868,0.017966477279662711,-8.4943946888821458,0.022802577775071383,0.13800785879752356,-7.7322927151872722,0.13800785879752356,-7.7322927151872722,0.13800785879752356,-7.7322927151872722,0.022802577775071383,-8.4943946888821458,0.022802577775071383,-8.4943946888821458,0.022802577775071383,-8.4943946888821458,0.34305121178097703,-5.4881489012048625,0.34305121178097703,-5.4881489012048625,0.34305121178097703,-5.4881489012048625,0.017966477279662711,-8.4941550883935868,0.017966477279662711,-8.4941550883935868,0.017966477279662711,-8.4941550883935868,1.5530612244897959,0.64388961892247043
27,-8.0092648713805552,0.14381877081830066,-5.634744057754892,0.34182663598106205,-8.7371129342158707,0.016551898887515827,-8.7373498776004972,0.020991445160228672,0.14381877081830066,-8.0092648713805552,0.14381877081830066,-8.0092648713805552,0.14381877081830066,-8.0092648713805552,0.020991445160228672,-8.7373498776004972,0.020991445160228672,-8.7373498776004972,0.020991445160228672,-8.7373498776004972,0.34182663598106205,-5.634744057754892,0.34182663598106205,-5.634744057754892,0.34182663598106205,-5.634744057754892,0.016551898887515827,-8.7371129342158707,0.016551898887515827,-8.7371129342158707,0.016551898887515827,-8.7371129342158707,1.5551020408163265,0.64304461942257218
