,s11a,o1@0,o1@0,s31a,s31m,s41a,s41m,s21a,s21m,o2@0,o2@0,s22a,s33m,s33a,s44m,s44a,o1@0,o2@0,s12a,s34m,s34a,s43m,s43a,s13m,s13a,s24m,s24a,s42m,s42a,s14m,s14a,s23m,s23a,s32m,s32a,wavelengths,freqs
0,1.11165292798788,0.036911875592902196,-1.535249731002277,0.39359595739315106,-2.6367863444359214,0.025283702319322882,-2.6382453503226366,0.032772188277967226,0.036911875592902196,1.11165292798788,0.036911875592902196,1.11165292798788,0.036911875592902196,1.11165292798788,0.032772188277967226,-2.6382453503226366,0.032772188277967226,-2.6382453503226366,0.032772188277967226,-2.6382453503226366,0.39359595739315106,-1.535249731002277,0.39359595739315106,-1.535249731002277,0.39359595739315106,-1.535249731002277,0.025283702319322882,-2.6367863444359214,0.025283702319322882,-2.6367863444359214,0.025283702319322882,-2.6367863444359214,1.5,0.66666666666666663
1,0.38185707812704051,0.030814409690278634,-1.7035690049111187,0.38840244883808589,-2.8592055504642846,0.024906889619375858,-2.8604674184293333,0.032237922521466518,0.030814409690278634,0.38185707812704051,0.030814409690278634,0.38185707812704051,0.030814409690278634,0.38185707812704051,0.032237922521466518,-2.8604674184293333,0.032237922521466518,-2.8604674184293333,0.032237922521466518,-2.8604674184293333,0.38840244883808589,-1.7035690049111187,0.38840244883808589,-1.7035690049111187,0.38840244883808589,-1.7035690049111187,0.024906889619375858,-2.8592055504642846,0.024906889619375858,-2.8592055504642846,0.024906889619375858,-2.8592055504642846,1.5020408163265306,0.66576086956521741
2,-0.4095221165168958,0.035456667691536464,-1.8681470118038059,0.38278550556635754,-3.0748028996981498,0.024444860884904267,-3.0756887177054386,0.031599242593416309,0.035456667691536464,-0.4095221165168958,0.035456667691536464,-0.4095221165168958,0.035456667691536464,-0.4095221165168958,0.031599242593416309,-3.0756887177054386,0.031599242593416309,-3.0756887177054386,0.031599242593416309,-3.0756887177054386,0.38278550556635754,-1.8681470118038059,0.38278550556635754,-1.8681470118038059,0.38278550556635754,-1.8681470118038059,0.024444860884904267,-3.0748028996981498,0.024444860884904267,-3.0748028996981498,0.024444860884904267,-3.0748028996981498,1.5040816326530613,0.66485753052917229
3,-0.98692194102145636,0.048730839999385267,-2.0287667976369503,0.37713907219929743,-3.2826976660287426,0.023944842785728063,-3.2830901910493346,0.030919126098147124,0.048730839999385267,-0.98692194102145636,0.048730839999385267,-0.98692194102145636,0.048730839999385267,-0.98692194102145636,0.030919126098147124,-3.2830901910493346,0.030919126098147124,-3.2830901910493346,0.030919126098147124,-3.2830901910493346,0.37713907219929743,-2.0287667976369503,0.37713907219929743,-2.0287667976369503,0.37713907219929743,-2.0287667976369503,0.023944842785728063,-3.2826976660287426,0.023944842785728063,-3.2826976660287426,0.023944842785728063,-3.2826976660287426,1.5061224489795919,0.66395663956639561
4,-1.3951997172460608,0.06564405183797041,-2.1855561684656677,0.37185068523253273,-3.4825694755147008,0.023462635228832452,-3.4824356127685641,0.03027035979737849,0.06564405183797041,-1.3951997172460608,0.06564405183797041,-1.3951997172460608,0.06564405183797041,-1.3951997172460608,0.03027035979737849,-3.4824356127685641,0.03027035979737849,-3.4824356127685641,0.03027035979737849,-3.4824356127685641,0.37185068523253273,-2.1855561684656677,0.37185068523253273,-2.1855561684656677,0.37185068523253273,-2.1855561684656677,0.023462635228832452,-3.4825694755147008,0.023462635228832452,-3.4825694755147008,0.023462635228832452,-3.4825694755147008,1.5081632653061225,0.66305818673883621
5,-1.7209642334530886,0.083503842442336981,-2.3389969758462796,0.36725161926282801,-3.6749355274371656,0.023056399868512885,-3.674339042541066,0.029727329665155167,0.083503842442336981,-1.7209642334530886,0.083503842442336981,-1.7209642334530886,0.083503842442336981,-1.7209642334530886,0.029727329665155167,-3.674339042541066,0.029727329665155167,-3.674339042541066,0.029727329665155167,-3.674339042541066,0.36725161926282801,-2.3389969758462796,0.36725161926282801,-2.3389969758462796,0.36725161926282801,-2.3389969758462796,0.023056399868512885,-3.6749355274371656,0.023056399868512885,-3.6749355274371656,0.023056399868512885,-3.6749355274371656,1.510204081632653,0.66216216216216217
6,-2.0063201433484905,0.10092899409808791,-2.4898702230680509,0.36357351592150522,-3.8613310117444652,0.022778459705434632,-3.8604258319156171,0.029355486858749235,0.10092899409808791,-2.0063201433484905,0.10092899409808791,-2.0063201433484905,0.10092899409808791,-2.0063201433484905,0.029355486858749235,-3.8604258319156171,0.029355486858749235,-3.8604258319156171,0.029355486858749235,-3.8604258319156171,0.36357351592150522,-2.4898702230680509,0.36357351592150522,-2.4898702230680509,0.36357351592150522,-2.4898702230680509,0.022778459705434632,-3.8613310117444652,0.022778459705434632,-3.8613310117444652,0.022778459705434632,-3.8613310117444652,1.5122448979591836,0.66126855600539813
7,-2.270415790787728,0.11704157576229982,-2.6391389843054922,0.3609209961756138,-4.0442662954647215,0.022666622264494354,-4.0432645279052082,0.029200531633230029,0.11704157576229982,-2.270415790787728,0.11704157576229982,-2.270415790787728,0.11704157576229982,-2.270415790787728,0.029200531633230029,-4.0432645279052082,0.029200531633230029,-4.0432645279052082,0.029200531633230029,-4.0432645279052082,0.3609209961756138,-2.6391389843054922,0.3609209961756138,-2.6391389843054922,0.3609209961756138,-2.6391389843054922,0.022666622264494354,-4.0442662954647215,0.022666622264494354,-4.0442662954647215,0.022666622264494354,-4.0442662954647215,1.5142857142857142,0.66037735849056611
8,-2.5227759470976321,0.13121292188938879,-2.7877936492185555,0.359266395579383,-4.2268923673208736,0.022737382968791301,-4.2260128479217665,0.029280330690125811,0.13121292188938879,-2.5227759470976321,0.13121292188938879,-2.5227759470976321,0.13121292188938879,-2.5227759470976321,0.029280330690125811,-4.2260128479217665,0.029280330690125811,-4.2260128479217665,0.029280330690125811,-4.2260128479217665,0.359266395579383,-2.7877936492185555,0.359266395579383,-2.7877936492185555,0.359266395579383,-2.7877936492185555,0.022737382968791301,-4.2268923673208736,0.022737382968791301,-4.2268923673208736,0.022737382968791301,-4.2268923673208736,1.5163265306122449,0.65948855989232846
9,-2.7687215639738696,0.14299032246141682,-2.9366987892731742,0.35846686209892364,-4.4124495876601895,0.022983240039104257,-4.4118653752361876,0.029582248119351191,0.14299032246141682,-2.7687215639738696,0.14299032246141682,-2.7687215639738696,0.14299032246141682,-2.7687215639738696,0.029582248119351191,-4.4118653752361876,0.029582248119351191,-4.4118653752361876,0.029582248119351191,-4.4118653752361876,0.35846686209892364,-2.9366987892731742,0.35846686209892364,-2.9366987892731742,0.35846686209892364,-2.9366987892731742,0.022983240039104257,-4.4124495876601895,0.022983240039104257,-4.4124495876601895,0.022983240039104257,-4.4124495876601895,1.5183673469387755,0.65860215053763438
10,-3.0116423940371195,0.15207480837400297,-3.0864788306944115,0.35829817885130377,-4.6037068643479442,0.023374913254684198,-4.6035120067999635,0.030066622666659805,0.15207480837400297,-3.0116423940371195,0.15207480837400297,-3.0116423940371195,0.15207480837400297,-3.0116423940371195,0.030066622666659805,-4.6035120067999635,0.030066622666659805,-4.6035120067999635,0.030066622666659805,-4.6035120067999635,0.35829817885130377,-3.0864788306944115,0.35829817885130377,-3.0864788306944115,0.35829817885130377,-3.0864788306944115,0.023374913254684198,-4.6037068643479442,0.023374913254684198,-4.6037068643479442,0.023374913254684198,-4.6037068643479442,1.5204081632653061,0.65771812080536907
11,-3.2540379617496331,0.15831194705838519,-3.2374626168651419,0.35849641841802166,-4.8025996299003513,0.023867292341874596,-4.8028039868898684,0.030674681836905571,0.15831194705838519,-3.2540379617496331,0.15831194705838519,-3.2540379617496331,0.15831194705838519,-3.2540379617496331,0.030674681836905571,-4.8028039868898684,0.030674681836905571,-4.8028039868898684,0.030674681836905571,-4.8028039868898684,0.35849641841802166,-3.2374626168651419,0.35849641841802166,-3.2374626168651419,0.35849641841802166,-3.2374626168651419,0.023867292341874596,-4.8025996299003513,0.023867292341874596,-4.8025996299003513,0.023867292341874596,-4.8025996299003513,1.5224489795918368,0.65683646112600536
12,-3.4980413155822125,0.16168516691638238,-3.3896859050332471,0.35879876468405064,-5.0101451138855522,0.024406787962089654,-5.01069132642467,0.031337900961321857,0.16168516691638238,-3.4980413155822125,0.16168516691638238,-3.4980413155822125,0.16168516691638238,-3.4980413155822125,0.031337900961321857,-5.01069132642467,0.031337900961321857,-5.01069132642467,0.031337900961321857,-5.01069132642467,0.35879876468405064,-3.3896859050332471,0.35879876468405064,-3.3896859050332471,0.35879876468405064,-3.3896859050332471,0.024406787962089654,-5.0101451138855522,0.024406787962089654,-5.0101451138855522,0.024406787962089654,-5.0101451138855522,1.5244897959183674,0.65595716198125831
13,-3.7457080424156151,0.16230986968577221,-3.5429367524734161,0.35897746518569718,-5.2265711422909842,0.024937991445857038,-5.227360968390947,0.031986261303028965,0.16230986968577221,-3.7457080424156151,0.16230986968577221,-3.7457080424156151,0.16230986968577221,-3.7457080424156151,0.031986261303028965,-5.227360968390947,0.031986261303028965,-5.227360968390947,0.031986261303028965,-5.227360968390947,0.35897746518569718,-3.5429367524734161,0.35897746518569718,-3.5429367524734161,0.35897746518569718,-3.5429367524734161,0.024937991445857038,-5.2265711422909842,0.024937991445857038,-5.2265711422909842,0.024937991445857038,-5.2265711422909842,1.5265306122448981,0.65508021390374327
14,-3.9991872867747031,0.16042908606124381,-3.6968252227365443,0.358863985885222,-5.4515368529623425,0.025408601457802972,-5.4524561899781698,0.032554230103744045,0.16042908606124381,-3.9991872867747031,0.16042908606124381,-3.9991872867747031,0.16042908606124381,-3.9991872867747031,0.032554230103744045,-5.4524561899781698,0.032554230103744045,-5.4524561899781698,0.032554230103744045,-5.4524561899781698,0.358863985885222,-3.6968252227365443,0.358863985885222,-3.6968252227365443,0.358863985885222,-3.6968252227365443,0.025408601457802972,-5.4515368529623425,0.025408601457802972,-5.4515368529623425,0.025408601457802972,-5.4515368529623425,1.5285714285714287,0.65420560747663548
15,-4.2608157621828413,0.15641143585048628,-3.8508626633126992,0.35836264505663501,-5.6843475284696314,0.025772567835054553,-5.6852850384721734,0.032984497014420001,0.15641143585048628,-4.2608157621828413,0.15641143585048628,-4.2608157621828413,0.15641143585048628,-4.2608157621828413,0.032984497014420001,-5.6852850384721734,0.032984497014420001,-5.6852850384721734,0.032984497014420001,-5.6852850384721734,0.35836264505663501,-3.8508626633126992,0.35836264505663501,-3.8508626633126992,0.35836264505663501,-3.8508626633126992,0.025772567835054553,-5.6843475284696314,0.025772567835054553,-5.6843475284696314,0.025772567835054553,-5.6843475284696314,1.5306122448979591,0.65333333333333332
16,-4.5331258380718911,0.15075082687509384,-4.0045415113491796,0.35745395997428864,-5.9241173262545974,0.025991902948104408,-5.924976055256316,0.033230076285945306,0.15075082687509384,-4.5331258380718911,0.15075082687509384,-4.5331258380718911,0.15075082687509384,-4.5331258380718911,0.033230076285945306,-5.924976055256316,0.033230076285945306,-5.924976055256316,0.033230076285945306,-5.924976055256316,0.35745395997428864,-4.0045415113491796,0.35745395997428864,-4.0045415113491796,0.35745395997428864,-4.0045415113491796,0.025991902948104408,-5.9241173262545974,0.025991902948104408,-5.9241173262545974,0.025991902948104408,-5.9241173262545974,1.5326530612244897,0.65246338215712385
17,-4.8187085814035227,0.14406470886372563,-4.1574102075541539,0.35618810868526651,-6.1698736165637493,0.026037668384731563,-6.1705770995610694,0.033255420033420469,0.14406470886372563,-4.8187085814035227,0.14406470886372563,-4.8187085814035227,0.14406470886372563,-4.8187085814035227,0.033255420033420469,-6.1705770995610694,0.033255420033420469,-6.1705770995610694,0.033255420033420469,-6.1705770995610694,0.35618810868526651,-4.1574102075541539,0.35618810868526651,-4.1574102075541539,0.35618810868526651,-4.1574102075541539,0.026037668384731563,-6.1698736165637493,0.026037668384731563,-6.1698736165637493,0.026037668384731563,-6.1698736165637493,1.5346938775510204,0.65159574468085113
18,-5.1198198095463097,0.13708319782943226,-4.3091380353829916,0.35466904333041621,-6.420615487132749,0.025890482196105371,-6.4211102315109718,0.033036968369905759,0.13708319782943226,-5.1198198095463097,0.13708319782943226,-5.1198198095463097,0.13708319782943226,-5.1198198095463097,0.033036968369905759,-6.4211102315109718,0.033036968369905759,-6.4211102315109718,0.033036968369905759,-6.4211102315109718,0.35466904333041621,-4.3091380353829916,0.35466904333041621,-4.3091380353829916,0.35466904333041621,-4.3091380353829916,0.025890482196105371,-6.420615487132749,0.025890482196105371,-6.420615487132749,0.025890482196105371,-6.420615487132749,1.536734693877551,0.65073041168658696
19,-5.437604318354202,0.1306148584137829,-4.4595625336941289,0.35303050352184767,-6.6753428536305055,0.02554069175480397,-6.675598739253422,0.032563308130358869,0.1306148584137829,-5.437604318354202,0.1306148584137829,-5.437604318354202,0.1306148584137829,-5.437604318354202,0.032563308130358869,-6.675598739253422,0.032563308130358869,-6.675598739253422,0.032563308130358869,-6.675598739253422,0.35303050352184767,-4.4595625336941289,0.35303050352184767,-4.4595625336941289,0.35303050352184767,-4.4595625336941289,0.02554069175480397,-6.6753428536305055,0.02554069175480397,-6.6753428536305055,0.02554069175480397,-6.6753428536305055,1.5387755102040817,0.64986737400530503
20,-5.7709621745850042,0.12546994809717463,-4.6087100440461768,0.35140665033635721,-6.9330695841994103,0.02498821284450822,-6.9330791990886418,0.031834932950199624,0.12546994809717463,-5.7709621745850042,0.12546994809717463,-5.7709621745850042,0.12546994809717463,-5.7709621745850042,0.031834932950199624,-6.9330791990886418,0.031834932950199624,-6.9330791990886418,0.031834932950199624,-6.9330791990886418,0.35140665033635721,-4.6087100440461768,0.35140665033635721,-4.6087100440461768,0.35140665033635721,-4.6087100440461768,0.02498821284450822,-6.9330695841994103,0.02498821284450822,-6.9330695841994103,0.02498821284450822,-6.9330695841994103,1.5408163265306123,0.64900662251655628
21,-6.1155216349708876,0.12233037407764957,-4.7567809049458489,0.34990188291869562,-7.1928292450249192,0.024241974950155443,-7.1926067316374844,0.03086352455470252,0.12233037407764957,-6.1155216349708876,0.12233037407764957,-6.1155216349708876,0.12233037407764957,-6.1155216349708876,0.03086352455470252,-7.1926067316374844,0.03086352455470252,-7.1926067316374844,0.03086352455470252,-7.1926067316374844,0.34990188291869562,-4.7567809049458489,0.34990188291869562,-4.7567809049458489,0.34990188291869562,-4.7567809049458489,0.024241974950155443,-7.1928292450249192,0.024241974950155443,-7.1928292450249192,0.024241974950155443,-7.1928292450249192,1.5428571428571429,0.64814814814814814
22,-6.4636852197566093,0.12159187017236746,-4.9040966508233081,0.34856573292659393,-7.4536778123976974,0.023318927407694343,-7.4532574807722058,0.029670695989072838,0.12159187017236746,-6.4636852197566093,0.12159187017236746,-6.4636852197566093,0.12159187017236746,-6.4636852197566093,0.029670695989072838,-7.4532574807722058,0.029670695989072838,-7.4532574807722058,0.029670695989072838,-7.4532574807722058,0.34856573292659393,-4.9040966508233081,0.34856573292659393,-4.9040966508233081,0.34856573292659393,-4.9040966508233081,0.023318927407694343,-7.4536778123976974,0.023318927407694343,-7.4536778123976974,0.023318927407694343,-7.4536778123976974,1.5448979591836736,0.64729194187582562
23,-6.8064158948999181,0.12325296454254255,-5.0510163856888335,0.34737859734599386,-7.7146946739967817,0.022242624434951404,-7.7141294214444791,0.028286218242208144,0.12325296454254255,-6.8064158948999181,0.12325296454254255,-6.8064158948999181,0.12325296454254255,-6.8064158948999181,0.028286218242208144,-7.7141294214444791,0.028286218242208144,-7.7141294214444791,0.028286218242208144,-7.7141294214444791,0.34737859734599386,-5.0510163856888335,0.34737859734599386,-5.0510163856888335,0.34737859734599386,-5.0510163856888335,0.022242624434951404,-7.7146946739967817,0.022242624434951404,-7.7146946739967817,0.022242624434951404,-7.7146946739967817,1.5469387755102042,0.64643799472295504
24,-7.1359720574185808,0.1269252375190883,-5.1978392191155089,0.34625204186865516,-7.9749814550689306,0.021041485857302897,-7.9743408786847922,0.026745850756682635,0.1269252375190883,-7.1359720574185808,0.1269252375190883,-7.1359720574185808,0.1269252375190883,-7.1359720574185808,0.026745850756682635,-7.9743408786847922,0.026745850756682635,-7.9743408786847922,0.026745850756682635,-7.9743408786847922,0.34625204186865516,-5.1978392191155089,0.34625204186865516,-5.1978392191155089,0.34625204186865516,-5.1978392191155089,0.021041485857302897,-7.9749814550689306,0.021041485857302897,-7.9749814550689306,0.021041485857302897,-7.9749814550689306,1.5489795918367348,0.6455862977602107
25,-7.4477924357985792,0.13196123256859649,-5.3447142233083911,0.34504401866924272,-8.2336574149573796,0.019746894563766517,-8.2330253781851628,0.025088976451922027,0.13196123256859649,-7.4477924357985792,0.13196123256859649,-7.4477924357985792,0.13196123256859649,-7.4477924357985792,0.025088976451922027,-8.2330253781851628,0.025088976451922027,-8.2330253781851628,0.025088976451922027,-8.2330253781851628,0.34504401866924272,-5.3447142233083911,0.34504401866924272,-5.3447142233083911,0.34504401866924272,-5.3447142233083911,0.019746894563766517,-8.2336574149573796,0.019746894563766517,-8.2336574149573796,0.019746894563766517,-8.2336574149573796,1.5510204081632653,0.64473684210526316
26,-7.7406363294974367,0.13762004380622886,-5.4915763102373152,0.3435859019794929,-8.4898501069779826,0.018391322188571989,-8.4893213980616729,0.023356279528194513,0.13762004380622886,-7.7406363294974367,0.13762004380622886,-7.7406363294974367,0.13762004380622886,-7.7406363294974367,0.023356279528194513,-8.4893213980616729,0.023356279528194513,-8.4893213980616729,0.023356279528194513,-8.4893213980616729,0.3435859019794929,-5.4915763102373152,0.3435859019794929,-5.4915763102373152,0.3435859019794929,-5.4915763102373152,0.018391322188571989,-8.4898501069779826,0.018391322188571989,-8.4898501069779826,0.018391322188571989,-8.4898501069779826,1.5530612244897959,0.64388961892247043
27,-8.0155817709733856,0.14319488312723461,-5.6381177671304084,0.34171607461602005,-8.7426805196145665,0.017006665980614573,-8.7423560997170036,0.021587693297340782,0.14319488312723461,-8.0155817709733856,0.14319488312723461,-8.0155817709733856,0.14319488312723461,-8.0155817709733856,0.021587693297340782,-8.7423560997170036,0.021587693297340782,-8.7423560997170036,0.021587693297340782,-8.7423560997170036,0.34171607461602005,-5.6381177671304084,0.34171607461602005,-5.6381177671304084,0.34171607461602005,-5.6381177671304084,0.017006665980614573,-8.7426805196145665,0.017006665980614573,-8.7426805196145665,0.017006665980614573,-8.7426805196145665,1.5551020408163265,0.64304461942257218
