,s11a,o1@0,o1@0,s21a,s21m,s12a,o1@0,o2@0,s22a,o2@0,o2@0,wavelengths,freqs
0,3.1406560601202766,0.0055710843057361027,-3.0514262742304235,0.99999882803433782,-3.0514262244285955,0.99999884551528651,3.1406196661410712,0.0055711687905202496,1.5,0.66666666666666663
1,3.1408256787133406,0.0055581139369554784,-3.084385511619244,0.99999999242396165,-3.0843854482047615,1.0000000350453691,3.1407930627353768,0.0055581951610571521,1.5020408163265306,0.66576086956521741
2,3.1409975347763908,0.0055452131592965883,-3.1172556781757255,1.0000011513492764,-3.117255604142732,1.0000012201006414,3.1409688015659918,0.0055452915573352022,1.5040816326530613,0.66485753052917229
3,3.1411715572538856,0.0055323819030072344,-3.1500371298771608,1.0000023035636765,-3.1500370474653883,1.000002399298384,3.1411468130061624,0.0055324579160754292,1.5061224489795919,0.66395663956639561
4,3.1413476658845698,0.0055196200839126453,-3.1827302196853919,1.0000034474129786,-3.1827301303786681,1.0000035707825254,3.1413270180490298,0.0055196941670711958,1.5081632653061225,0.66305818673883621
5,3.1415257739400833,0.0055069276034687489,-3.2153352979670391,1.0000045809593785,-3.2153352024994084,1.0000047323615207,3.1415093295902352,0.0055070002359880934,1.510204081632653,0.66216216216216217
6,3.1417057909639796,0.0054943043512207931,-3.2478527128813366,1.0000057020961646,-3.2478526112531227,1.0000058816478008,3.1416936538307088,0.0054943760441011173,1.5122448979591836,0.66126855600539813
7,3.1418876251591916,0.0054817502093112754,-3.2802828107271242,1.0000068086541407,-3.280282702237737,1.0000070161936461,3.141879891966878,0.0054818215061652733,1.5142857142857142,0.66037735849056611
8,3.1420711851842462,0.0054692650578545624,-3.3126259362449497,1.0000078985009413,-3.3126258195498228,1.0000081336173994,3.1420679421814568,0.0054693365279012323,1.5163265306122449,0.65948855989232846
9,3.142256381272682,0.0054568487796622552,-3.3448824328736455,1.0000089696336183,-3.3448823060695694,1.0000092317142633,3.1422577017910687,0.0054569210045479948,1.5183673469387755,0.65860215053763438
10,3.1424431257818908,0.0054445012629500897,-3.3770526429630947,1.0000100202632294,-3.3770525037006829,1.0000103085472545,3.1424490693289502,0.0054445748210810016,1.5204081632653061,0.65771812080536907
11,3.1426313333745819,0.0054322224013276651,-3.4091369079454696,1.0000110488888907,-3.4091367535615582,1.0000113625161633,3.1426419462976605,0.0054322978541384969,1.5224489795918368,0.65683646112600536
12,3.1428209210892799,0.0054200120911450829,-3.4411355684670752,1.0000120543577993,-3.4411353961254121,1.0000123924046311,3.1428362384051325,0.0054200899749482674,1.5244897959183674,0.65595716198125831
13,3.1430118085104333,0.0054078702270280521,-3.4730489644818725,1.0000130359081345,-3.4730487713088261,1.0000133974077152,3.1430318562018771,0.005407951052058318,1.5265306122448981,0.65508021390374327
14,3.1432039181292764,0.005395796696884966,-3.5048774353071726,1.0000139931926368,-3.5048772185107797,1.0000143771432091,3.1432287151764426,0.0053958809528910426,1.5285714285714287,0.65420560747663548
15,3.1433971758742003,0.0053837913775493483,-3.5366213196414926,1.0000149262827136,-3.536621076606385,1.0000153316504432,3.1434267354668539,0.0053838795433631941,1.5306122448979591,0.65333333333333332
16,3.1435915116730961,0.0053718541320286525,-3.5682809555450992,1.0000158356547804,-3.568280683901325,1.0000162613795702,3.1436258414037961,0.0053719466854563833,1.5326530612244897,0.65246338215712385
17,3.1437868598582881,0.0053599848086371962,-3.5998566803852099,1.0000167221621767,-3.5998563780541506,1.0000171671730684,3.1438259610751103,0.0053600822333215422,1.5346938775510204,0.65159574468085113
18,3.1439831592444274,0.0053481832415626191,-3.6313488307492512,1.0000175869969969,-3.6313484959733069,1.0000180502402034,3.1440270260398564,0.0053482860286413313,1.536734693877551,0.65073041168658696
19,3.1441803527855359,0.0053364492521812438,-3.6627577423315385,1.0000184316460321,-3.6627573736952104,1.0000189121239869,3.1442289712155054,0.0053365578964749477,1.5387755102040817,0.64986737400530503
20,3.1443783868165585,0.0053247826499803544,-3.6940837498000945,1.000019257844285,-3.6940833462485494,1.0000197546601006,3.1444317348683888,0.0053248976423087499,1.5408163265306123,0.64900662251655628
21,3.1445772099970157,0.0053131832325263913,-3.7253271866505751,1.0000200675279889,-3.725326747508336,1.0000205799274635,3.144635258569537,0.0053133050508046287,1.5428571428571429,0.64814814814814814
22,3.1447767721382731,0.0053016507836978468,-3.756488385054396,1.0000208627878744,-3.7564879100428827,1.0000213901910771,3.1448394869761964,0.005301779886081829,1.5448979591836736,0.64729194187582562
23,3.1449770231151026,0.0052901850707673566,-3.787567675706637,1.0000216458219535,-3.7875671649558234,1.0000221878388535,3.1450443673311885,0.0052903218931022733,1.5469387755102042,0.64643799472295504
24,3.1451779120222545,0.0052787858405760448,-3.8185653876781291,1.000022418886849,-3.8185648417260047,1.0000229753150847,3.1452498486548204,0.0052789307992379157,1.5489795918367348,0.6455862977602107
25,3.1453793866448509,0.005267452816000634,-3.8494818482742499,1.0000231842468015,-3.849481268048192,1.0000237550539572,3.1454558806806578,0.005267606315334821,1.5510204081632653,0.64473684210526316
26,3.1455813932386389,0.0052561856933960238,-3.8803173829019166,1.0000239441203882,-3.8803167696786232,1.000024529416385,3.145662412681022,0.0052563481357042639,1.5530612244897959,0.64388961892247043
27,3.1457838764959374,0.0052449841417032458,-3.9110723149453674,1.0000247006261276,-3.9110716702897661,1.0000253006329702,3.1458693923297916,0.0052451559370105972,1.5551020408163265,0.64304461942257218
28,3.145986779573283,0.0052338478034549404,-3.9417469656517112,1.0000254557294062,-3.9417462913390495,1.0000260707551951,3.1460767647802395,0.0052340293760723732,1.5571428571428572,0.64220183486238536
29,3.1461900440163046,0.0052227762973251256,-3.9723416540274537,1.0000262111936324,-3.9723409519559509,1.0000268416152525,3.1462844720451235,0.0052229680875894632,1.5591836734693878,0.6413612565445026
30,3.1463936095106351,0.0052117692215514991,-4.0028566967484824,1.0000269685390673,-4.0028559688511107,1.000027614794635,3.1464924527242175,0.0052119716822449846,1.5612244897959184,0.64052287581699341
31,3.1465974134335388,0.0052008261573184226,-4.0332924080864005,1.0000277290118482,-4.0332916562497099,1.000028391600341,3.1467006420188421,0.0052010397459818667,1.5632653061224491,0.63968668407310703
32,3.1468013902938763,0.0051899466716247011,-4.0636490998551373,1.0000284935646542,-4.0636483258504601,1.0000291730476851,3.1469089719421683,0.0051901718407869595,1.5653061224489797,0.63885267275097779
33,3.1470054711716591,0.005179130318675903,-4.0939270813808211,1.0000292628493344,-4.0939262868098432,1.0000299598487952,3.1471173715688407,0.0051793675069564281,1.5673469387755103,0.63802083333333326
34,3.1472095833583489,0.005168376640297,-4.1241266594977013,1.0000300372201276,-4.1241258457507355,1.0000307524065624,3.1473257672574246,0.0051686262664916854,1.569387755102041,0.63719115734720411
35,3.1474136502895962,0.0051576851654473463,-4.1542481385713277,1.0000308167452492,-4.1542473067940557,1.0000315508142879,3.1475340827437703,0.0051579476269616288,1.5714285714285714,0.63636363636363635
36,3.1476175918773359,0.0051470554095317663,-4.1842918205481521,1.0000316012246442,-4.1842909716117571,1.000032354862151,3.1477422391447858,0.0051473310851693817,1.573469387755102,0.63553826199740593
37,3.147821325207929,0.0051364868745979245,-4.2142580050299543,1.0000323902113553,-4.2142571395001411,1.0000331640516311,3.1479501549304358,0.0051367761299496344,1.5755102040816327,0.63471502590673579
38,3.1480247655370497,0.0051259790504332905,-4.2441469893694679,1.0000331830356877,-4.2441461074728348,1.0000339776188525,3.1481577459918886,0.0051262822441391883,1.5775510204081633,0.63389391979301424
39,3.1482278274037161,0.005115531417462113,-4.2739590687837854,1.0000339788316122,-4.2739581703726541,1.0000347945676502,3.1483649259052653,0.0051158489053156906,1.5795918367346939,0.63307493540051674
40,3.1484304257372404,0.0051051434508609722,-4.3036945364817507,1.0000347765665956,-4.3036936210021617,1.0000356137118136,3.1485716065083751,0.0051054755861749592,1.5816326530612246,0.63225806451612898
41,3.1486324767878071,0.0050948146255388261,-4.3333536838025841,1.0000355750761054,-4.3333527502720317,1.0000364337253775,3.1487776987837242,0.0050951617548725264,1.5836734693877552,0.63144329896907214
42,3.1488338988083497,0.0050845443906913004,-4.3629368003648468,1.0000363731043904,-4.3629358473667859,1.0000372531988555,3.1489831139991709,0.0050849068454873443,1.5857142857142859,0.63063063063063063
43,3.1490346127216293,0.00507433229627765,-4.3924441742176832,1.0000371693534065,-4.3924431999183895,1.0000380706998271,3.1491877652225257,0.0050747103825158407,1.5877551020408165,0.62982005141388164
44,3.1492345422516776,0.0050641778116821828,-4.4218760920111153,1.0000379625368581,-4.4218750942014546,1.0000388848327317,3.1493915684518501,0.0050645717995423866,1.5897959183673471,0.62901155327342739
45,3.1494336144936117,0.0050540804498516263,-4.4512328391614853,1.000038751441662,-4.451231815322461,1.0000396942989793,3.1495944440649732,0.0050544905666670137,1.5918367346938775,0.62820512820512819
46,3.1496317604169581,0.0050440397362974763,-4.480514700028178,1.0000395349904883,-4.4805136474149334,1.0000404979529234,3.1497963178435944,0.0050444661638050729,1.5938775510204082,0.62740076824583868
47,3.1498289156686674,0.0050340552073770504,-4.5097219580911236,1.0000403123034267,-4.5097208738282699,1.0000412948537636,3.149997121788672,0.0050344980845453908,1.5959183673469388,0.62659846547314579
48,3.1500250216250092,0.0050241264092440209,-4.5388548961268578,1.0000410827537431,-4.5388537773062358,1.0000420843126436,3.1501967947016016,0.0050245858391035235,1.5979591836734695,0.62579821200510855
49,3.1502200271972525,0.0050142518925879887,-4.5679137963814371,1.0000418460225762,-4.5679126401190109,1.0000428659498128,3.1503952814796938,0.0050147274525652371,1.6000000000000001,0.625
